Index       TIME             V(IN_1)           V(IN_2)           V(IN_3)          V(OUT_1)          V(OUT_2)          V(OUT_3)          I(VROW_1)         I(VROW_2)         I(VROW_3)        I(RLOAD_1)        I(RLOAD_2)        I(RLOAD_3)    
0        0.00000000e+00    0.00000000e+00    0.00000000e+00    0.00000000e+00    0.00000000e+00    0.00000000e+00    0.00000000e+00    0.00000000e+00    0.00000000e+00    0.00000000e+00    0.00000000e+00    0.00000000e+00    0.00000000e+00
1        5.00000000e-12    5.00000000e-04    5.00000000e-04    5.00000000e-04    4.76303318e-04    2.08700301e-04    4.55357143e-04   -2.77752769e-08   -5.88846172e-08   -2.73761821e-08    4.76303318e-08    2.08700301e-08    4.55357143e-08
2        1.50000000e-11    1.50000000e-03    1.50000000e-03    1.50000000e-03    1.42890995e-03    6.26100902e-04    1.36607143e-03   -8.33258306e-08   -1.76653852e-07   -8.21285462e-08    1.42890995e-07    6.26100902e-08    1.36607143e-07
3        3.50000000e-11    3.50000000e-03    3.50000000e-03    3.50000000e-03    3.33412322e-03    1.46090211e-03    3.18750000e-03   -1.94426938e-07   -4.12192320e-07   -1.91633274e-07    3.33412322e-07    1.46090211e-07    3.18750000e-07
4        7.50000000e-11    7.50000000e-03    7.50000000e-03    7.50000000e-03    7.14454976e-03    3.13050451e-03    6.83035714e-03   -4.16629153e-07   -8.83269258e-07   -4.10642731e-07    7.14454976e-07    3.13050451e-07    6.83035714e-07
5        1.55000000e-10    1.55000000e-02    1.55000000e-02    1.55000000e-02    1.47654028e-02    6.46970932e-03    1.41160714e-02   -8.61033583e-07   -1.82542313e-06   -8.48661644e-07    1.47654028e-06    6.46970932e-07    1.41160714e-06
6        3.15000000e-10    3.15000000e-02    3.15000000e-02    3.15000000e-02    3.00071090e-02    1.31481190e-02    2.86875000e-02   -1.74984244e-06   -3.70973088e-06   -1.72469947e-06    3.00071090e-06    1.31481190e-06    2.86875000e-06
7        6.35000000e-10    6.35000000e-02    6.35000000e-02    6.35000000e-02    6.04905213e-02    2.65049382e-02    5.78303571e-02   -3.52746016e-06   -7.47834638e-06   -3.47677512e-06    6.04905213e-06    2.65049382e-06    5.78303571e-06
8        1.00000000e-09    1.00000000e-01    1.00000000e-01    1.00000000e-01    9.52606635e-02    4.17400602e-02    9.10714286e-02   -5.55505537e-06   -1.17769234e-05   -5.47523641e-06    9.52606635e-06    4.17400602e-06    9.10714286e-06
9        1.06400000e-09    1.00000000e-01    1.00000000e-01    1.00000000e-01    9.52606635e-02    4.17400602e-02    9.10714286e-02   -5.55505537e-06   -1.17769234e-05   -5.47523641e-06    9.52606635e-06    4.17400602e-06    9.10714286e-06
10       1.19200000e-09    1.00000000e-01    1.00000000e-01    1.00000000e-01    9.52606635e-02    4.17400602e-02    9.10714286e-02   -5.55505537e-06   -1.17769234e-05   -5.47523641e-06    9.52606635e-06    4.17400602e-06    9.10714286e-06
11       1.44800000e-09    1.00000000e-01    1.00000000e-01    1.00000000e-01    9.52606635e-02    4.17400602e-02    9.10714286e-02   -5.55505537e-06   -1.17769234e-05   -5.47523641e-06    9.52606635e-06    4.17400602e-06    9.10714286e-06
12       1.96000000e-09    1.00000000e-01    1.00000000e-01    1.00000000e-01    9.52606635e-02    4.17400602e-02    9.10714286e-02   -5.55505537e-06   -1.17769234e-05   -5.47523641e-06    9.52606635e-06    4.17400602e-06    9.10714286e-06
13       2.98400000e-09    1.00000000e-01    1.00000000e-01    1.00000000e-01    9.52606635e-02    4.17400602e-02    9.10714286e-02   -5.55505537e-06   -1.17769234e-05   -5.47523641e-06    9.52606635e-06    4.17400602e-06    9.10714286e-06
14       5.03200000e-09    1.00000000e-01    1.00000000e-01    1.00000000e-01    9.52606635e-02    4.17400602e-02    9.10714286e-02   -5.55505537e-06   -1.17769234e-05   -5.47523641e-06    9.52606635e-06    4.17400602e-06    9.10714286e-06
15       9.12800000e-09    1.00000000e-01    1.00000000e-01    1.00000000e-01    9.52606635e-02    4.17400602e-02    9.10714286e-02   -5.55505537e-06   -1.17769234e-05   -5.47523641e-06    9.52606635e-06    4.17400602e-06    9.10714286e-06
16       1.73200000e-08    1.00000000e-01    1.00000000e-01    1.00000000e-01    9.52606635e-02    4.17400602e-02    9.10714286e-02   -5.55505537e-06   -1.17769234e-05   -5.47523641e-06    9.52606635e-06    4.17400602e-06    9.10714286e-06
17       3.37040000e-08    1.00000000e-01    1.00000000e-01    1.00000000e-01    9.52606635e-02    4.17400602e-02    9.10714286e-02   -5.55505537e-06   -1.17769234e-05   -5.47523641e-06    9.52606635e-06    4.17400602e-06    9.10714286e-06
18       6.64720000e-08    1.00000000e-01    1.00000000e-01    1.00000000e-01    9.52606635e-02    4.17400602e-02    9.10714286e-02   -5.55505537e-06   -1.17769234e-05   -5.47523641e-06    9.52606635e-06    4.17400602e-06    9.10714286e-06
19       1.32008000e-07    1.00000000e-01    1.00000000e-01    1.00000000e-01    9.52606635e-02    4.17400602e-02    9.10714286e-02   -5.55505537e-06   -1.17769234e-05   -5.47523641e-06    9.52606635e-06    4.17400602e-06    9.10714286e-06
20       2.63080000e-07    1.00000000e-01    1.00000000e-01    1.00000000e-01    9.52606635e-02    4.17400602e-02    9.10714286e-02   -5.55505537e-06   -1.17769234e-05   -5.47523641e-06    9.52606635e-06    4.17400602e-06    9.10714286e-06
21       5.25224000e-07    1.00000000e-01    1.00000000e-01    1.00000000e-01    9.52606635e-02    4.17400602e-02    9.10714286e-02   -5.55505537e-06   -1.17769234e-05   -5.47523641e-06    9.52606635e-06    4.17400602e-06    9.10714286e-06
22       1.00100000e-06    1.00000000e-01    1.00000000e-01    1.00000000e-01    9.52606635e-02    4.17400602e-02    9.10714286e-02   -5.55505537e-06   -1.17769234e-05   -5.47523641e-06    9.52606635e-06    4.17400602e-06    9.10714286e-06
23       1.00100625e-06    9.93750000e-02    9.93750000e-02    9.93750000e-02    9.46652844e-02    4.14791848e-02    9.05022321e-02   -5.52033628e-06   -1.17033177e-05   -5.44101618e-06    9.46652844e-06    4.14791848e-06    9.05022321e-06
24       1.00101250e-06    9.87500000e-02    9.87500000e-02    9.87500000e-02    9.40699052e-02    4.12183094e-02    8.99330357e-02   -5.48561718e-06   -1.16297119e-05   -5.40679596e-06    9.40699052e-06    4.12183094e-06    8.99330357e-06
25       1.00102500e-06    9.75000000e-02    9.75000000e-02    9.75000000e-02    9.28791469e-02    4.06965587e-02    8.87946429e-02   -5.41617899e-06   -1.14825004e-05   -5.33835550e-06    9.28791469e-06    4.06965587e-06    8.87946429e-06
26       1.00105000e-06    9.50000000e-02    9.50000000e-02    9.50000000e-02    9.04976303e-02    3.96530572e-02    8.65178571e-02   -5.27730260e-06   -1.11880773e-05   -5.20147459e-06    9.04976303e-06    3.96530572e-06    8.65178571e-06
27       1.00110000e-06    9.00000000e-02    9.00000000e-02    9.00000000e-02    8.57345972e-02    3.75660541e-02    8.19642857e-02   -4.99954984e-06   -1.05992311e-05   -4.92771277e-06    8.57345972e-06    3.75660541e-06    8.19642857e-06
28       1.00120000e-06    8.00000000e-02    8.00000000e-02    8.00000000e-02    7.62085308e-02    3.33920481e-02    7.28571429e-02   -4.44404430e-06   -9.42153875e-06   -4.38018913e-06    7.62085308e-06    3.33920481e-06    7.28571429e-06
29       1.00140000e-06    6.00000000e-02    6.00000000e-02    6.00000000e-02    5.71563981e-02    2.50440361e-02    5.46428571e-02   -3.33303322e-06   -7.06615406e-06   -3.28514185e-06    5.71563981e-06    2.50440361e-06    5.46428571e-06
30       1.00180000e-06    2.00000000e-02    2.00000000e-02    2.00000000e-02    1.90521327e-02    8.34801203e-03    1.82142857e-02   -1.11101107e-06   -2.35538469e-06   -1.09504728e-06    1.90521327e-06    8.34801203e-07    1.82142857e-06
31       1.00200000e-06   -7.50788320e-15   -7.50788320e-15   -7.50788320e-15   -7.15396618e-15   -3.14304773e-15   -6.83054090e-15    4.21467573e-19    8.90305812e-19    3.87323690e-19   -7.15396618e-19   -3.14304773e-19   -6.83054090e-19
32       1.00208000e-06    0.00000000e+00    0.00000000e+00    0.00000000e+00    0.00000000e+00    3.94430453e-31    0.00000000e+00    9.14816724e-34   -9.62964972e-34   -4.81482486e-34    0.00000000e+00    3.94430453e-35    0.00000000e+00
33       1.00224000e-06    0.00000000e+00    0.00000000e+00    0.00000000e+00    0.00000000e+00    0.00000000e+00    0.00000000e+00   -2.21481944e-33    2.31111593e-33   -4.81482486e-34    0.00000000e+00    0.00000000e+00    0.00000000e+00
34       1.00256000e-06    0.00000000e+00    0.00000000e+00    0.00000000e+00    0.00000000e+00    0.00000000e+00    0.00000000e+00    3.65926689e-33   -3.08148791e-33   -3.85185989e-34    0.00000000e+00    0.00000000e+00    0.00000000e+00
35       1.00320000e-06    0.00000000e+00    0.00000000e+00    0.00000000e+00    0.00000000e+00    0.00000000e+00    0.00000000e+00   -3.65926689e-33    3.08148791e-33    3.85185989e-34    0.00000000e+00    0.00000000e+00    0.00000000e+00
36       1.00448000e-06    0.00000000e+00    0.00000000e+00    0.00000000e+00    0.00000000e+00    0.00000000e+00    0.00000000e+00    3.65926689e-33   -3.08148791e-33   -3.85185989e-34    0.00000000e+00    0.00000000e+00    0.00000000e+00
37       1.00704000e-06    0.00000000e+00    0.00000000e+00    0.00000000e+00    0.00000000e+00    0.00000000e+00    0.00000000e+00   -3.65926689e-33    3.08148791e-33    3.85185989e-34    0.00000000e+00    0.00000000e+00    0.00000000e+00
38       1.01216000e-06    0.00000000e+00    0.00000000e+00    0.00000000e+00    0.00000000e+00    0.00000000e+00    0.00000000e+00    3.65926689e-33   -3.08148791e-33   -3.85185989e-34    0.00000000e+00    0.00000000e+00    0.00000000e+00
39       1.02240000e-06    0.00000000e+00    0.00000000e+00    0.00000000e+00    0.00000000e+00    0.00000000e+00    0.00000000e+00   -3.65926689e-33    3.08148791e-33    3.85185989e-34    0.00000000e+00    0.00000000e+00    0.00000000e+00
40       1.04288000e-06    0.00000000e+00    0.00000000e+00    0.00000000e+00    0.00000000e+00    0.00000000e+00    0.00000000e+00    3.65926689e-33   -3.08148791e-33   -3.85185989e-34    0.00000000e+00    0.00000000e+00    0.00000000e+00
41       1.08384000e-06    0.00000000e+00    0.00000000e+00    0.00000000e+00    0.00000000e+00    0.00000000e+00    0.00000000e+00   -3.65926689e-33    3.08148791e-33    3.85185989e-34    0.00000000e+00    0.00000000e+00    0.00000000e+00
42       1.16576000e-06    0.00000000e+00    0.00000000e+00    0.00000000e+00    0.00000000e+00    0.00000000e+00    0.00000000e+00    3.65926689e-33   -3.08148791e-33   -3.85185989e-34    0.00000000e+00    0.00000000e+00    0.00000000e+00
43       1.32960000e-06    0.00000000e+00    0.00000000e+00    0.00000000e+00    0.00000000e+00    0.00000000e+00    0.00000000e+00   -3.65926689e-33    3.08148791e-33    3.85185989e-34    0.00000000e+00    0.00000000e+00    0.00000000e+00
44       1.65728000e-06    0.00000000e+00    0.00000000e+00    0.00000000e+00    0.00000000e+00    0.00000000e+00    0.00000000e+00    3.65926689e-33   -3.08148791e-33   -3.85185989e-34    0.00000000e+00    0.00000000e+00    0.00000000e+00
45       2.31264000e-06    0.00000000e+00    0.00000000e+00    0.00000000e+00    0.00000000e+00    0.00000000e+00    0.00000000e+00   -3.65926689e-33    3.08148791e-33    3.85185989e-34    0.00000000e+00    0.00000000e+00    0.00000000e+00
46       3.62336000e-06    0.00000000e+00    0.00000000e+00    0.00000000e+00    0.00000000e+00    0.00000000e+00    0.00000000e+00    3.65926689e-33   -3.08148791e-33   -3.85185989e-34    0.00000000e+00    0.00000000e+00    0.00000000e+00
47       6.24480000e-06    0.00000000e+00    0.00000000e+00    0.00000000e+00    0.00000000e+00    0.00000000e+00    0.00000000e+00   -3.65926689e-33    3.08148791e-33    3.85185989e-34    0.00000000e+00    0.00000000e+00    0.00000000e+00
48       1.14876800e-05    0.00000000e+00    0.00000000e+00    0.00000000e+00    0.00000000e+00    0.00000000e+00    0.00000000e+00    3.65926689e-33   -3.08148791e-33   -3.85185989e-34    0.00000000e+00    0.00000000e+00    0.00000000e+00
49       2.14876800e-05    0.00000000e+00    0.00000000e+00    0.00000000e+00    0.00000000e+00    0.00000000e+00    0.00000000e+00   -3.65926689e-33    3.08148791e-33    3.85185989e-34    0.00000000e+00    0.00000000e+00    0.00000000e+00
50       3.14876800e-05    0.00000000e+00    0.00000000e+00    0.00000000e+00    0.00000000e+00    0.00000000e+00    0.00000000e+00    3.65926689e-33   -3.08148791e-33   -3.85185989e-34    0.00000000e+00    0.00000000e+00    0.00000000e+00
51       4.14876800e-05    0.00000000e+00    0.00000000e+00    0.00000000e+00    0.00000000e+00    0.00000000e+00    0.00000000e+00   -3.65926689e-33    3.08148791e-33    3.85185989e-34    0.00000000e+00    0.00000000e+00    0.00000000e+00
52       5.14876800e-05    0.00000000e+00    0.00000000e+00    0.00000000e+00    0.00000000e+00    0.00000000e+00    0.00000000e+00    3.65926689e-33   -3.08148791e-33   -3.85185989e-34    0.00000000e+00    0.00000000e+00    0.00000000e+00
53       6.14876800e-05    0.00000000e+00    0.00000000e+00    0.00000000e+00    0.00000000e+00    0.00000000e+00    0.00000000e+00   -3.65926689e-33    3.08148791e-33    3.85185989e-34    0.00000000e+00    0.00000000e+00    0.00000000e+00
54       7.14876800e-05    0.00000000e+00    0.00000000e+00    0.00000000e+00    0.00000000e+00    0.00000000e+00    0.00000000e+00    3.65926689e-33   -3.08148791e-33   -3.85185989e-34    0.00000000e+00    0.00000000e+00    0.00000000e+00
55       8.14876800e-05    0.00000000e+00    0.00000000e+00    0.00000000e+00    0.00000000e+00    0.00000000e+00    0.00000000e+00   -3.65926689e-33    3.08148791e-33    3.85185989e-34    0.00000000e+00    0.00000000e+00    0.00000000e+00
56       9.14876800e-05    0.00000000e+00    0.00000000e+00    0.00000000e+00    0.00000000e+00    0.00000000e+00    0.00000000e+00    3.65926689e-33   -3.08148791e-33   -3.85185989e-34    0.00000000e+00    0.00000000e+00    0.00000000e+00
57       1.00000000e-04    0.00000000e+00    0.00000000e+00    0.00000000e+00    0.00000000e+00    0.00000000e+00    0.00000000e+00   -3.65926689e-33    3.08148791e-33    3.85185989e-34    0.00000000e+00    0.00000000e+00    0.00000000e+00
End of Xyce(TM) Simulation
